
**** 11/22/16 14:04:28 ***** PSpice 16.6.0 (October 2012) ***** ID# 0 ********

  ***** MCNUTT - HEFNER SiC POWER MOSFET MODEL *****


 ****     CIRCUIT DESCRIPTION


******************************************************************************




 ***** DYNAMIC SIMULATION CIRCUIT *****

XDUT D G 0 Tj SiCMOS

* Gate Circuit
Rg G1 G 10
Lg G1 G2 1e-09

* Gate Pulse
Vgs G2 0 PULSE(-5 20 1us 10ns 10ns 4us 8us)

* DC Bus Voltage
Vd D3 0 800

* Junction Temperature
VTj Tj 0 300

* Load Current
Id D3 D 20

* Freewheeling Diode
Df D D3 dmod

.MODEL dmod D(Is=1e-10)

RGSENSE G 0 10E12

RDSENSE D 0 10E12

.OPTIONS ABSTOL=1e-3 CHGTOL=0.01e-12 GMIN=1e-12 ITL1=1500 ITL2=2000 ITL4=1000 RELTOL= 0.005 VNTOL=1e-3

.TRAN 0ns 6us 0ns 1n

.PRINT TRAN I(Rg) I(XDUT.VSENSE) V(RGSENSE) V(RDSENSE)

.PROBE I(Vd) V(RDSENSE) V(RGSENSE)


.SUBCKT SiCMOS D G S Tj


 ***** ON-STATE RESISTANCE MODEL *****


.param A = {0.15387}
* device active area [cm^2]
.param Nb = {3207361500000000}
* drift region dopant density [cm^-3]
.param q = 1.6e-19
* foundamental electronic charge [C]
.param Rs = {0.0015229}
* drain series resistance [ohm]
.param eps_semi = {9.66*8.854e-14}
* SiC dielectric constant [F/cm]
.param k = 1.38e-23
* Boltzmann´s constant
.param Wb = {0.002}
* metallurgical drift region width [cm]

* intrinsic carrier concentration
Eni 3 0 value = { LIMIT(4.81E15*PWR(v(Tj),1.5)*exp(-18567/v(Tj)),0,1E11)}
REni 3 0 1E10

* built-in junction potential
EVbi 2 0 value = { LIMIT(k*v(Tj)/q*LOG(1E16*Nb/PWR(v(3),2)),0,100)}
RVbi 2 0 1E12

* quasineutral drift region width (W=Wb-Wdsj) [cm]
EW 1 0 value = { LIMIT(Wb-SQRT(2*eps_semi*(v(D)+v(2))/q/Nb),0,1E-3)}
RW 1 0 1E12

* bulk electron mobility
Eun 4 0 value = { LIMIT(947/(1+PWR(Nb/1.94e17,0.61))*PWR(v(Tj)/300,-2.15),0,1E3)}
Run 4 0 1E12

ERb 5 0 value = {LIMIT(Rs + v(1)/(q*A*Nb*v(4)),0,1)}

ERon D D2 value = {I(VSENSE)*v(5)}
VSENSE D2 D1 0V




 ***** CAPACITANCES MODEL *****

.param Agd = 0.015387
* gate-drain overlap area [cm^-2]
.param Vtd = 10
* gate-drain overlap depletion threshold
.param Coxd = 1.79e-10
* gate-drain overlap oxide capacitance
.param Cgs = 1.0886e-09
* gate-source capacitance
.param Fxjbe = 0.5
* gate-drain overlap depletion charge factor at edge
.param Fxjbm = 0.75
* gate-drain overlap depletion charge factor at middle

* gate-drain overlap inversion treshold voltage
EVtdi 6 0 value = {Vtd-v(2)-Fxjbm*Agd/Coxd*SQRT(2*eps_semi*q*Nb*(v(2)+v(D1)))}
RVtdi 6 0 1E12
EVtdiedge 8 0 value = {Vtd-v(2)-Fxjbe*Agd/Coxd*SQRT(2*eps_semi*q*Nb*(v(2)+v(D1)))}
RVtdiedge 8 0 1E12

* GATE-SOURCE CAPACITANCE
Cgs G S 1.0886e-09

* gate-drain depletion capacitance
ECgdj 7 0 value = { LIMIT(Agd*eps_semi/SQRT(2*eps_semi*(v(D1,G)+Vtd)/q/Nb),0,2n) }
RCgdj 7 0 1E12

* GATE-DRAIN CAPACITANCE
GCgd D1 G value={ LIMIT(IF(v(G)-Vtd>=V(D1), Coxd*DDT(v(D1,G)),
+ Coxd*v(7)/(Coxd+v(7))*DDT(v(D1,G))),-10,10) }

* drain-source junction capacitance
ECdsj 9 0 value = { LIMIT((A-Agd)*eps_semi/SQRT(2*eps_semi*(v(D1)+v(2))/q/Nb),0,10n) }
RCdsj 9 0 1E12

* DRAIN-SOURCE CAPACITANCE
GCds D1 S value={ LIMIT(v(9)*DDT(v(D1)),-10,10)}




 **** MOSFET CURRENT MODEL ****

.param Kfl = {0.013787}     
* low current transconductance factor
.param theta = 0
* transverse electric field parameter
.param Kp = {1.8246}
* saturation region transconductance
.param Kf = {2} 
* linear transconductance factor
.param Vtr = {4.1447}
* threshold voltage
.param dVtl = 0
* low current treshold voltage differential
.param Vth = {Vtr+Kfl/(1-Kfl)*dVtl}    
* high current voltage threshold
.param Vtl = {Vtr-dVtl}                           
* low current voltage threshold
.param Pvf = {0.6}
* pinch-off voltage factor
.param y = {Kf/(Kf-Pvf/2)}

* low threshold current
GIMOSL D1 S  value = { IF(v(D1)<=(v(G)-Vtl)/Pvf, 
+       Kfl*Kf*Kp*((v(G)-Vtl)*v(D1)-PWR(Pvf,(y-1))*PWR(v(D1),y)*PWR((v(G)-Vtl),(2-y))/y)
+       /(1+theta*(v(G)-Vtl)),
+       Kfl*Kp*PWR((v(G)-Vtl),2)/2/(1+theta*(v(G)-Vtl))) }

* high threshold current
GIMOSH D1 S  value = { IF(v(D1)<=(v(G)-Vth)/Pvf, 
+       (1.0-Kfl)*Kf*Kp*((v(G)-Vth)*v(D1)-1/y*PWR(Pvf,(y-1))*PWR(v(D1),y)*PWR(v(G)-Vth,(2-y)))
+       /(1+theta*(v(G)-Vth)),
+       (1.0-Kfl)*Kp*PWR(v(G)-Vth,2)/2/(1+theta*(v(G)-Vth))) }

* below high threshold
GIMOSBHT D1 S  value = { IF(v(G)<= Vth, 
+       -(1.0-Kfl)*Kp*PWR(v(G)-Vth,2)/2/(1+theta*(v(G)-Vth)), 0 ) }

* below low threshold
GIMOSBLT D1 S  value = { IF(v(G)<= Vtl, 
+       -Kfl*Kp*PWR((v(G)-Vtl),2)/2/(1+theta*(v(G)-Vtl)), 0 ) }

.ends SiCMOS


.END

**** 11/22/16 14:04:28 ***** PSpice 16.6.0 (October 2012) ***** ID# 0 ********

  ***** MCNUTT - HEFNER SiC POWER MOSFET MODEL *****


 ****     Diode MODEL PARAMETERS


******************************************************************************




               dmod            
          IS  100.000000E-12 


WARNING(ORPSIM-16534): Using high values of ITL4 for Speed Level > 0 may increase total simulation job time.

**** 11/22/16 14:04:28 ***** PSpice 16.6.0 (October 2012) ***** ID# 0 ********

  ***** MCNUTT - HEFNER SiC POWER MOSFET MODEL *****


 ****     INITIAL TRANSIENT SOLUTION       TEMPERATURE =   27.000 DEG C


******************************************************************************



 NODE   VOLTAGE     NODE   VOLTAGE     NODE   VOLTAGE     NODE   VOLTAGE


(    D)  800.6700  (    G)   -5.0000  (   D3)  800.0000  (   G1)   -5.0000      

(   G2)   -5.0000  (   Tj)  300.0000  (XDUT.1) 363.5E-06 (XDUT.2)    2.7685     

(XDUT.3) 33.06E-09 (XDUT.4)  875.3300 (XDUT.5)     .0068 (XDUT.6)  -46.9120     

(XDUT.7) 7.981E-12 (XDUT.8)  -28.8640 (XDUT.9) 72.38E-12 (XDUT.D1)  800.6700    

(XDUT.D2)  800.6700                   




    VOLTAGE SOURCE CURRENTS
    NAME         CURRENT

    Vgs          8.062E-10
    Vd          -4.889E-09
    VTj          0.000E+00
    XDUT.VSENSE   4.889E-09

    TOTAL POWER DISSIPATION   3.92E-06  WATTS


**** 11/22/16 14:04:28 ***** PSpice 16.6.0 (October 2012) ***** ID# 0 ********

  ***** MCNUTT - HEFNER SiC POWER MOSFET MODEL *****


 ****     TRANSIENT ANALYSIS               TEMPERATURE =   27.000 DEG C


******************************************************************************



  TIME        I(Rg)       I(XDUT.VSENSE)V(RGSENSE)  V(RDSENSE)  

   0.000E+00  -8.062E-10   4.889E-09  -5.000E+00   8.007E+02
   1.000E-09  -8.786E-03   6.632E-05  -4.913E+00   8.007E+02
   2.000E-09  -8.015E-03   5.578E-05  -4.921E+00   8.007E+02
   3.000E-09  -7.302E-03   5.084E-05  -4.928E+00   8.007E+02
   4.000E-09  -6.664E-03   4.631E-05  -4.934E+00   8.007E+02
   5.000E-09  -6.074E-03   4.226E-05  -4.940E+00   8.007E+02
   6.000E-09  -5.542E-03   3.854E-05  -4.945E+00   8.007E+02
   7.000E-09  -5.053E-03   3.515E-05  -4.950E+00   8.007E+02
   8.000E-09  -4.609E-03   3.205E-05  -4.954E+00   8.007E+02
   9.000E-09  -4.203E-03   2.923E-05  -4.958E+00   8.007E+02
   1.000E-08  -3.833E-03   2.666E-05  -4.962E+00   8.007E+02
   1.100E-08  -3.495E-03   2.431E-05  -4.965E+00   8.007E+02
   1.200E-08  -3.188E-03   2.217E-05  -4.968E+00   8.007E+02
   1.300E-08  -2.907E-03   2.022E-05  -4.971E+00   8.007E+02
   1.400E-08  -2.651E-03   1.844E-05  -4.974E+00   8.007E+02
   1.500E-08  -2.418E-03   1.682E-05  -4.976E+00   8.007E+02
   1.600E-08  -2.205E-03   1.534E-05  -4.978E+00   8.007E+02
   1.700E-08  -2.011E-03   1.399E-05  -4.980E+00   8.007E+02
   1.800E-08  -1.834E-03   1.276E-05  -4.982E+00   8.007E+02
   1.900E-08  -1.673E-03   1.164E-05  -4.983E+00   8.007E+02
   2.000E-08  -1.525E-03   1.061E-05  -4.985E+00   8.007E+02
   2.100E-08  -1.391E-03   9.679E-06  -4.986E+00   8.007E+02
   2.200E-08  -1.269E-03   8.828E-06  -4.987E+00   8.007E+02
   2.300E-08  -1.157E-03   8.051E-06  -4.989E+00   8.007E+02
   2.400E-08  -1.055E-03   7.343E-06  -4.990E+00   8.007E+02
   2.500E-08  -9.623E-04   6.697E-06  -4.990E+00   8.007E+02
   2.600E-08  -8.776E-04   6.108E-06  -4.991E+00   8.007E+02
   2.700E-08  -8.004E-04   5.571E-06  -4.992E+00   8.007E+02
   2.800E-08  -7.299E-04   5.081E-06  -4.993E+00   8.007E+02
   2.900E-08  -6.657E-04   4.634E-06  -4.993E+00   8.007E+02
   3.000E-08  -6.071E-04   4.227E-06  -4.994E+00   8.007E+02
   3.100E-08  -5.537E-04   3.855E-06  -4.995E+00   8.007E+02
   3.200E-08  -5.049E-04   3.516E-06  -4.995E+00   8.007E+02
   3.300E-08  -4.605E-04   3.207E-06  -4.995E+00   8.007E+02
   3.400E-08  -4.200E-04   2.925E-06  -4.996E+00   8.007E+02
   3.500E-08  -3.830E-04   2.668E-06  -4.996E+00   8.007E+02
   3.600E-08  -3.493E-04   2.434E-06  -4.997E+00   8.007E+02
   3.700E-08  -3.185E-04   2.220E-06  -4.997E+00   8.007E+02
   3.800E-08  -2.905E-04   2.025E-06  -4.997E+00   8.007E+02
   3.900E-08  -2.649E-04   1.847E-06  -4.997E+00   8.007E+02
   4.000E-08  -2.416E-04   1.685E-06  -4.998E+00   8.007E+02
   4.100E-08  -2.203E-04   1.537E-06  -4.998E+00   8.007E+02
   4.200E-08  -2.010E-04   1.402E-06  -4.998E+00   8.007E+02
   4.300E-08  -1.833E-04   1.279E-06  -4.998E+00   8.007E+02
   4.400E-08  -1.671E-04   1.167E-06  -4.998E+00   8.007E+02
   4.500E-08  -1.524E-04   1.065E-06  -4.998E+00   8.007E+02
   4.600E-08  -1.390E-04   9.715E-07  -4.999E+00   8.007E+02
   4.700E-08  -1.268E-04   8.865E-07  -4.999E+00   8.007E+02
   4.800E-08  -1.156E-04   8.088E-07  -4.999E+00   8.007E+02
   4.900E-08  -1.054E-04   7.380E-07  -4.999E+00   8.007E+02
   5.000E-08  -9.616E-05   6.734E-07  -4.999E+00   8.007E+02
   5.100E-08  -8.769E-05   6.146E-07  -4.999E+00   8.007E+02
   5.200E-08  -7.998E-05   5.611E-07  -4.999E+00   8.007E+02
   5.300E-08  -7.294E-05   5.120E-07  -4.999E+00   8.007E+02
   5.400E-08  -6.652E-05   4.674E-07  -4.999E+00   8.007E+02
   5.500E-08  -6.066E-05   4.266E-07  -4.999E+00   8.007E+02
   5.600E-08  -5.532E-05   3.895E-07  -4.999E+00   8.007E+02
   5.700E-08  -5.045E-05   3.557E-07  -5.000E+00   8.007E+02
   5.800E-08  -4.601E-05   3.247E-07  -5.000E+00   8.007E+02
   5.900E-08  -4.196E-05   2.967E-07  -5.000E+00   8.007E+02
   6.000E-08  -3.827E-05   2.710E-07  -5.000E+00   8.007E+02
   6.100E-08  -3.490E-05   2.476E-07  -5.000E+00   8.007E+02
   6.200E-08  -3.183E-05   2.262E-07  -5.000E+00   8.007E+02
   6.300E-08  -2.903E-05   2.067E-07  -5.000E+00   8.007E+02
   6.400E-08  -2.647E-05   1.889E-07  -5.000E+00   8.007E+02
   6.500E-08  -2.414E-05   1.727E-07  -5.000E+00   8.007E+02
   6.600E-08  -2.202E-05   1.579E-07  -5.000E+00   8.007E+02
   6.700E-08  -2.008E-05   1.444E-07  -5.000E+00   8.007E+02
   6.800E-08  -1.831E-05   1.321E-07  -5.000E+00   8.007E+02
   6.900E-08  -1.670E-05   1.209E-07  -5.000E+00   8.007E+02
   7.000E-08  -1.523E-05   1.106E-07  -5.000E+00   8.007E+02
   7.100E-08  -1.389E-05   1.014E-07  -5.000E+00   8.007E+02
   7.200E-08  -1.267E-05   9.292E-08  -5.000E+00   8.007E+02
   7.300E-08  -1.155E-05   8.515E-08  -5.000E+00   8.007E+02
   7.400E-08  -1.054E-05   7.809E-08  -5.000E+00   8.007E+02
   7.500E-08  -9.609E-06   7.163E-08  -5.000E+00   8.007E+02
   7.600E-08  -8.763E-06   6.568E-08  -5.000E+00   8.007E+02
   7.700E-08  -7.992E-06   6.028E-08  -5.000E+00   8.007E+02
   7.800E-08  -7.289E-06   5.546E-08  -5.000E+00   8.007E+02
   7.900E-08  -6.647E-06   5.105E-08  -5.000E+00   8.007E+02
   8.000E-08  -6.062E-06   4.699E-08  -5.000E+00   8.007E+02
   8.100E-08  -5.529E-06   4.328E-08  -5.000E+00   8.007E+02
   8.200E-08  -5.042E-06   3.993E-08  -5.000E+00   8.007E+02
   8.300E-08  -4.598E-06   3.683E-08  -5.000E+00   8.007E+02
   8.400E-08  -4.194E-06   3.397E-08  -5.000E+00   8.007E+02
   8.500E-08  -3.825E-06   3.143E-08  -5.000E+00   8.007E+02
   8.600E-08  -3.488E-06   2.915E-08  -5.000E+00   8.007E+02
   8.700E-08  -3.181E-06   2.694E-08  -5.000E+00   8.007E+02
   8.800E-08  -2.901E-06   2.489E-08  -5.000E+00   8.007E+02
   8.900E-08  -2.646E-06   2.317E-08  -5.000E+00   8.007E+02
   9.000E-08  -2.413E-06   2.162E-08  -5.000E+00   8.007E+02
   9.100E-08  -2.201E-06   2.011E-08  -5.000E+00   8.007E+02
   9.200E-08  -2.007E-06   1.876E-08  -5.000E+00   8.007E+02
   9.300E-08  -1.831E-06   1.748E-08  -5.000E+00   8.007E+02
   9.400E-08  -1.670E-06   1.636E-08  -5.000E+00   8.007E+02
   9.500E-08  -1.523E-06   1.540E-08  -5.000E+00   8.007E+02
   9.600E-08  -1.389E-06   1.447E-08  -5.000E+00   8.007E+02
   9.700E-08  -1.267E-06   1.362E-08  -5.000E+00   8.007E+02
   9.800E-08  -1.155E-06   1.281E-08  -5.000E+00   8.007E+02
   9.900E-08  -1.054E-06   1.207E-08  -5.000E+00   8.007E+02
   1.000E-07  -9.609E-07   1.154E-08  -5.000E+00   8.007E+02
   1.010E-07  -8.764E-07   1.091E-08  -5.000E+00   8.007E+02
   1.020E-07  -7.993E-07   1.038E-08  -5.000E+00   8.007E+02
   1.030E-07  -7.290E-07   9.912E-09  -5.000E+00   8.007E+02
   1.040E-07  -6.649E-07   9.446E-09  -5.000E+00   8.007E+02
   1.050E-07  -6.065E-07   8.981E-09  -5.000E+00   8.007E+02
   1.060E-07  -5.532E-07   8.598E-09  -5.000E+00   8.007E+02
   1.070E-07  -5.045E-07   8.332E-09  -5.000E+00   8.007E+02
   1.080E-07  -4.602E-07   8.016E-09  -5.000E+00   8.007E+02
   1.090E-07  -4.198E-07   7.750E-09  -5.000E+00   8.007E+02
   1.100E-07  -3.829E-07   7.517E-09  -5.000E+00   8.007E+02
   1.110E-07  -3.493E-07   7.201E-09  -5.000E+00   8.007E+02
   1.120E-07  -3.186E-07   6.935E-09  -5.000E+00   8.007E+02
   1.130E-07  -2.906E-07   6.785E-09  -5.000E+00   8.007E+02
   1.140E-07  -2.651E-07   6.669E-09  -5.000E+00   8.007E+02
   1.150E-07  -2.418E-07   6.469E-09  -5.000E+00   8.007E+02
   1.160E-07  -2.206E-07   6.320E-09  -5.000E+00   8.007E+02
   1.170E-07  -2.013E-07   6.203E-09  -5.000E+00   8.007E+02
   1.180E-07  -1.836E-07   6.087E-09  -5.000E+00   8.007E+02
   1.190E-07  -1.675E-07   5.971E-09  -5.000E+00   8.007E+02
   1.200E-07  -1.529E-07   5.854E-09  -5.000E+00   8.007E+02
   1.210E-07  -1.395E-07   5.738E-09  -5.000E+00   8.007E+02
   1.220E-07  -1.273E-07   5.621E-09  -5.000E+00   8.007E+02
   1.230E-07  -1.161E-07   5.588E-09  -5.000E+00   8.007E+02
   1.240E-07  -1.060E-07   5.505E-09  -5.000E+00   8.007E+02
   1.250E-07  -9.674E-08   5.555E-09  -5.000E+00   8.007E+02
   1.260E-07  -8.829E-08   5.505E-09  -5.000E+00   8.007E+02
   1.270E-07  -8.059E-08   5.389E-09  -5.000E+00   8.007E+02
   1.280E-07  -7.357E-08   5.272E-09  -5.000E+00   8.007E+02
   1.290E-07  -6.716E-08   5.239E-09  -5.000E+00   8.007E+02
   1.300E-07  -6.132E-08   5.239E-09  -5.000E+00   8.007E+02
   1.310E-07  -5.600E-08   5.156E-09  -5.000E+00   8.007E+02
   1.320E-07  -5.114E-08   5.122E-09  -5.000E+00   8.007E+02
   1.330E-07  -4.671E-08   5.122E-09  -5.000E+00   8.007E+02
   1.340E-07  -4.267E-08   5.039E-09  -5.000E+00   8.007E+02
   1.350E-07  -3.898E-08   5.006E-09  -5.000E+00   8.007E+02
   1.360E-07  -3.562E-08   5.006E-09  -5.000E+00   8.007E+02
   1.370E-07  -3.256E-08   5.089E-09  -5.000E+00   8.007E+02
   1.380E-07  -2.976E-08   4.956E-09  -5.000E+00   8.007E+02
   1.390E-07  -2.722E-08   4.889E-09  -5.000E+00   8.007E+02
   1.400E-07  -2.489E-08   4.889E-09  -5.000E+00   8.007E+02
   1.410E-07  -2.277E-08   4.889E-09  -5.000E+00   8.007E+02
   1.420E-07  -2.084E-08   4.889E-09  -5.000E+00   8.007E+02
   1.430E-07  -1.907E-08   4.889E-09  -5.000E+00   8.007E+02
   1.440E-07  -1.747E-08   4.889E-09  -5.000E+00   8.007E+02
   1.450E-07  -1.600E-08   4.889E-09  -5.000E+00   8.007E+02
   1.460E-07  -1.466E-08   4.889E-09  -5.000E+00   8.007E+02
   1.470E-07  -1.344E-08   4.889E-09  -5.000E+00   8.007E+02
   1.480E-07  -1.233E-08   4.889E-09  -5.000E+00   8.007E+02
   1.490E-07  -1.132E-08   4.889E-09  -5.000E+00   8.007E+02
   1.500E-07  -1.039E-08   4.889E-09  -5.000E+00   8.007E+02
   1.510E-07  -9.548E-09   4.889E-09  -5.000E+00   8.007E+02
   1.520E-07  -8.778E-09   4.889E-09  -5.000E+00   8.007E+02
   1.530E-07  -8.077E-09   4.889E-09  -5.000E+00   8.007E+02
   1.540E-07  -7.437E-09   4.889E-09  -5.000E+00   8.007E+02
   1.550E-07  -6.853E-09   4.807E-09  -5.000E+00   8.007E+02
   1.560E-07  -6.321E-09   4.773E-09  -5.000E+00   8.007E+02
   1.570E-07  -5.836E-09   4.856E-09  -5.000E+00   8.007E+02
   1.580E-07  -5.393E-09   4.807E-09  -5.000E+00   8.007E+02
   1.590E-07  -4.989E-09   4.856E-09  -5.000E+00   8.007E+02
   1.600E-07  -4.621E-09   4.807E-09  -5.000E+00   8.007E+02
   1.610E-07  -4.285E-09   4.856E-09  -5.000E+00   8.007E+02
   1.620E-07  -3.979E-09   4.807E-09  -5.000E+00   8.007E+02
   1.630E-07  -3.700E-09   4.856E-09  -5.000E+00   8.007E+02
   1.640E-07  -3.445E-09   4.889E-09  -5.000E+00   8.007E+02
   1.650E-07  -3.213E-09   4.889E-09  -5.000E+00   8.007E+02
   1.660E-07  -3.001E-09   4.889E-09  -5.000E+00   8.007E+02
   1.670E-07  -2.808E-09   4.807E-09  -5.000E+00   8.007E+02
   1.680E-07  -2.632E-09   4.773E-09  -5.000E+00   8.007E+02
   1.690E-07  -2.471E-09   4.773E-09  -5.000E+00   8.007E+02
   1.700E-07  -2.324E-09   4.773E-09  -5.000E+00   8.007E+02
   1.710E-07  -2.191E-09   4.773E-09  -5.000E+00   8.007E+02
   1.720E-07  -2.069E-09   4.773E-09  -5.000E+00   8.007E+02
   1.730E-07  -1.958E-09   4.773E-09  -5.000E+00   8.007E+02
   1.740E-07  -1.856E-09   4.856E-09  -5.000E+00   8.007E+02
   1.750E-07  -1.764E-09   4.807E-09  -5.000E+00   8.007E+02
   1.760E-07  -1.680E-09   4.856E-09  -5.000E+00   8.007E+02
   1.770E-07  -1.603E-09   4.889E-09  -5.000E+00   8.007E+02
   1.780E-07  -1.533E-09   4.889E-09  -5.000E+00   8.007E+02
   1.790E-07  -1.469E-09   4.807E-09  -5.000E+00   8.007E+02
   1.800E-07  -1.410E-09   4.773E-09  -5.000E+00   8.007E+02
   1.810E-07  -1.357E-09   4.856E-09  -5.000E+00   8.007E+02
   1.820E-07  -1.309E-09   4.889E-09  -5.000E+00   8.007E+02
   1.830E-07  -1.264E-09   4.807E-09  -5.000E+00   8.007E+02
   1.840E-07  -1.224E-09   4.856E-09  -5.000E+00   8.007E+02
   1.850E-07  -1.187E-09   4.807E-09  -5.000E+00   8.007E+02
   1.860E-07  -1.154E-09   4.773E-09  -5.000E+00   8.007E+02
   1.870E-07  -1.123E-09   4.773E-09  -5.000E+00   8.007E+02
   1.880E-07  -1.095E-09   4.856E-09  -5.000E+00   8.007E+02
   1.890E-07  -1.070E-09   4.889E-09  -5.000E+00   8.007E+02
   1.900E-07  -1.047E-09   4.807E-09  -5.000E+00   8.007E+02
   1.910E-07  -1.025E-09   4.856E-09  -5.000E+00   8.007E+02
   1.920E-07  -1.006E-09   4.807E-09  -5.000E+00   8.007E+02
   1.930E-07  -9.886E-10   4.773E-09  -5.000E+00   8.007E+02
   1.940E-07  -9.725E-10   4.773E-09  -5.000E+00   8.007E+02
   1.950E-07  -9.579E-10   4.773E-09  -5.000E+00   8.007E+02
   1.960E-07  -9.445E-10   4.773E-09  -5.000E+00   8.007E+02
   1.970E-07  -9.323E-10   4.773E-09  -5.000E+00   8.007E+02
   1.980E-07  -9.212E-10   4.773E-09  -5.000E+00   8.007E+02
   1.990E-07  -9.111E-10   4.773E-09  -5.000E+00   8.007E+02
   2.000E-07  -9.019E-10   4.773E-09  -5.000E+00   8.007E+02
   2.010E-07  -8.935E-10   4.773E-09  -5.000E+00   8.007E+02
   2.020E-07  -8.858E-10   4.773E-09  -5.000E+00   8.007E+02
   2.030E-07  -8.788E-10   4.773E-09  -5.000E+00   8.007E+02
   2.040E-07  -8.724E-10   4.773E-09  -5.000E+00   8.007E+02
   2.050E-07  -8.665E-10   4.773E-09  -5.000E+00   8.007E+02
   2.060E-07  -8.612E-10   4.773E-09  -5.000E+00   8.007E+02
   2.070E-07  -8.564E-10   4.773E-09  -5.000E+00   8.007E+02
   2.080E-07  -8.520E-10   4.773E-09  -5.000E+00   8.007E+02
   2.090E-07  -8.479E-10   4.773E-09  -5.000E+00   8.007E+02
   2.100E-07  -8.443E-10   4.773E-09  -5.000E+00   8.007E+02
   2.110E-07  -8.409E-10   4.773E-09  -5.000E+00   8.007E+02
   2.120E-07  -8.379E-10   4.773E-09  -5.000E+00   8.007E+02
   2.130E-07  -8.351E-10   4.773E-09  -5.000E+00   8.007E+02
   2.140E-07  -8.325E-10   4.773E-09  -5.000E+00   8.007E+02
   2.150E-07  -8.302E-10   4.773E-09  -5.000E+00   8.007E+02
   2.160E-07  -8.281E-10   4.773E-09  -5.000E+00   8.007E+02
   2.170E-07  -8.262E-10   4.773E-09  -5.000E+00   8.007E+02
